! CL31B225KBHNFN Multilayer Ceramic Capacitor Sparameter Model
!-----------------------------------------------------------------------------------------------
! Model Generated by Samsung Electro-Mechanics
! Samsung Sparameter Version 5.0
! Date : May-30-2020
! Products : Multilayer Ceramic Capacitor(General)
!-----------------------------------------------------------------------------------------------
! Characteristics :
!
!     Nominal Capacitance = 2.2uF
!     Capacitance Tolerance = ¡¾10 %
!     TCC = X7R(-55 ~ +125 degC.)
!     Rated Voltage = 50Vdc
!     Size = 1206(unit:inch), 3216(unit:mm)
!     Length = 3.20 ¡¾ 0.20 mm
!     Width = 1.60 ¡¾ 0.20 mm
!     Thickness = 1.60 ¡¾ 0.20 mm
!     Measurement Temperature : 25degC.
!     DC bias Value = 12V
!     Frequency : 100Hz ~ 6GHz
!-----------------------------------------------------------------------------------------------
! External Node Assignments :
!
!  1  o---||---o  2
!
!-----------------------------------------------------------------------------------------------
# MHz S RI R 50.0
! Freq.  Real(S11)  Im(S11)  Real(S12)  Im(S12)  Real(S21)  Im(S21)  Real(S22)  Im(S22)
1.0E-4	0.9869059786320095	-0.10742604982357025	0.013094021367990635	0.10742604982357025	0.013094021367990635	0.10742604982357025	0.9869059786320095	-0.10742604982357025
1.061729498647108E-4	0.9853848839253108	-0.11382261795524096	0.01461511607468933	0.11382261795524096	0.01461511607468933	0.11382261795524096	0.9853848839253108	-0.11382261795524096
1.1272695282974394E-4	0.9836807631910663	-0.12057915429038206	0.01631923680893373	0.12057915429038206	0.01631923680893373	0.12057915429038206	0.9836807631910663	-0.12057915429038206
1.1968553111194022E-4	0.981771841227367	-0.12771122748672162	0.018228158772632924	0.12771122748672162	0.018228158772632924	0.12771122748672162	0.981771841227367	-0.12771122748672162
1.2707365894279313E-4	0.9796340238824544	-0.13523414339323295	0.020365976117545634	0.13523414339323295	0.020365976117545634	0.13523414339323295	0.9796340238824544	-0.13523414339323295
1.3491785220058549E-4	0.9772407118427162	-0.1431627327860064	0.022759288157283685	0.1431627327860064	0.022759288157283685	0.1431627327860064	0.9772407118427162	-0.1431627327860064
1.4324626357547222E-4	0.9745626134933443	-0.15151109839180446	0.025437386506655772	0.15151109839180446	0.025437386506655772	0.15151109839180446	0.9745626134933443	-0.15151109839180446
1.5208878360905762E-4	0.9715675613500385	-0.1602923161201683	0.0284324386499615	0.1602923161201683	0.0284324386499615	0.1602923161201683	0.9715675613500385	-0.1602923161201683
1.6147714797109324E-4	0.9682203378249922	-0.1695180853392003	0.03177966217500785	0.1695180853392003	0.03177966217500785	0.1695180853392003	0.9682203378249922	-0.1695180853392003
1.7144505135831373E-4	0.964482517555215	-0.1791983231028513	0.035517482444785003	0.1791983231028513	0.035517482444785003	0.1791983231028513	0.964482517555215	-0.1791983231028513
1.820282684241901E-4	0.9603123351997128	-0.18934069752407223	0.03968766480028713	0.18934069752407223	0.03968766480028713	0.18934069752407223	0.9603123351997128	-0.18934069752407223
1.9326478217361655E-4	0.955664589512862	-0.19995009605779704	0.044335410487137905	0.19995009605779704	0.044335410487137905	0.19995009605779704	0.955664589512862	-0.19995009605779704
2.0519492028333645E-4	0.9504905966252697	-0.2110280253967227	0.04950940337473037	0.2110280253967227	0.04950940337473037	0.2110280253967227	0.9504905966252697	-0.2110280253967227
2.178614998373603E-4	0.9447382077978025	-0.2225719410989339	0.055261792202197464	0.2225719410989339	0.055261792202197464	0.2225719410989339	0.9447382077978025	-0.2225719410989339
2.3130998099682757E-4	0.938351909424598	-0.23457450709281327	0.06164809057540187	0.23457450709281327	0.06164809057540187	0.23457450709281327	0.938351909424598	-0.23457450709281327
2.455886301558338E-4	0.9312730256763875	-0.24702278800361227	0.06872697432361255	0.24702278800361227	0.06872697432361255	0.24702278800361227	0.9312730256763875	-0.24702278800361227
2.607486931687835E-4	0.9234400467709157	-0.2598973810082725	0.07655995322908432	0.2598973810082725	0.07655995322908432	0.2598973810082725	0.9234400467709157	-0.2598973810082725
2.7684457927098106E-4	0.9147891082259331	-0.2731714988621058	0.08521089177406689	0.2731714988621058	0.08521089177406689	0.2731714988621058	0.9147891082259331	-0.2731714988621058
2.9393405635254826E-4	0.9052546482733227	-0.2868100220642578	0.09474535172667732	0.2868100220642578	0.09474535172667732	0.2868100220642578	0.9052546482733227	-0.2868100220642578
3.120784582865019E-4	0.8947702714280474	-0.3007685460107343	0.1052297285719525	0.3007685460107343	0.1052297285719525	0.3007685460107343	0.8947702714280474	-0.3007685460107343
3.3134290505509E-4	0.8832698453839665	-0.3149924584939934	0.11673015461603355	0.3149924584939934	0.11673015461603355	0.3149924584939934	0.8832698453839665	-0.3149924584939934
3.5179653646441703E-4	0.8706888551537559	-0.3294160939259871	0.12931114484624398	0.3294160939259871	0.12931114484624398	0.3294160939259871	0.8706888551537559	-0.3294160939259871
3.7351276028615456E-4	0.8569660317554045	-0.34396202276740223	0.1430339682445954	0.34396202276740223	0.1430339682445954	0.34396202276740223	0.8569660317554045	-0.34396202276740223
3.9656951571691664E-4	0.8420452618089312	-0.3585405470071352	0.15795473819106876	0.3585405470071352	0.15795473819106876	0.3585405470071352	0.8420452618089312	-0.3585405470071352
4.210495531008484E-4	0.825877768304314	-0.3730494838137999	0.17412223169568591	0.3730494838137999	0.17412223169568591	0.3730494838137999	0.825877768304314	-0.3730494838137999
4.470407309193526E-4	0.8084245310509348	-0.38737432779361286	0.1915754689490652	0.38737432779361286	0.1915754689490652	0.38737432779361286	0.8084245310509348	-0.38737432779361286
4.74636331113841E-4	0.7896588880759745	-0.4013888852747803	0.2103411119240254	0.4013888852747803	0.2103411119240254	0.4013888852747803	0.7896588880759745	-0.4013888852747803
5.039353938732011E-4	0.7695692275955973	-0.4149564690584575	0.23043077240440268	0.4149564690584575	0.23043077240440268	0.4149564690584575	0.7695692275955973	-0.4149564690584575
5.350430730875267E-4	0.7481616464071622	-0.42793172657802436	0.2518383535928378	0.42793172657802436	0.2518383535928378	0.42793172657802436	0.7481616464071622	-0.42793172657802436
5.680710137438283E-4	0.7254624181898309	-0.4401631464455097	0.2745375818101692	0.4401631464455097	0.2745375818101692	0.4401631464455097	0.7254624181898309	-0.4401631464455097
6.031377526181892E-4	0.701520088948527	-0.45149624721731546	0.29847991105147303	0.45149624721731546	0.29847991105147303	0.45149624721731546	0.701520088948527	-0.45149624721731546
6.403691437024535E-4	0.6764070020971812	-0.46177739900629083	0.3235929979028187	0.46177739900629083	0.3235929979028187	0.46177739900629083	0.6764070020971812	-0.46177739900629083
6.798988098922838E-4	0.6502200578028596	-0.4708581667331037	0.34977994219714037	0.4708581667331037	0.34977994219714037	0.4708581667331037	0.6502200578028596	-0.4708581667331037
7.218686225576998E-4	0.6230805344641607	-0.47859999920312574	0.3769194655358393	0.47859999920312574	0.3769194655358393	0.47859999920312574	0.6230805344641607	-0.47859999920312574
7.66429210717265E-4	0.5951328465973539	-0.4848790287260631	0.40486715340264606	0.4848790287260631	0.40486715340264606	0.4848790287260631	0.5951328465973539	-0.4848790287260631
8.137405016433406E-4	0.5665421817254764	-0.4895907006814532	0.4334578182745235	0.4895907006814532	0.4334578182745235	0.4895907006814532	0.5665421817254764	-0.4895907006814532
8.639722948386301E-4	0.5374910440698911	-0.4926539299360432	0.4625089559301088	0.4926539299360432	0.4625089559301088	0.4926539299360432	0.5374910440698911	-0.4926539299360432
9.173048714440101E-4	0.5081748262327156	-0.49401448790343755	0.49182517376728446	0.49401448790343755	0.49182517376728446	0.49401448790343755	0.5081748262327156	-0.49401448790343755
9.739296412647988E-4	0.47879662028593506	-0.4936473631281782	0.5212033797140648	0.4936473631281782	0.5212033797140648	0.4936473631281782	0.47879662028593506	-0.4936473631281782
0.0010340498297376325	0.44956155453768654	-0.4915579075730334	0.5504384454623136	0.4915579075730334	0.5504384454623136	0.4915579075730334	0.44956155453768654	-0.4915579075730334
0.0010978812073034639	0.4206709908774893	-0.48778167329580135	0.5793290091225105	0.48778167329580135	0.5793290091225105	0.48778167329580135	0.4206709908774893	-0.48778167329580135
0.0011656528638043897	0.39231693267198153	-0.4823829488625292	0.6076830673280184	0.4823829488625292	0.6076830673280184	0.4823829488625292	0.39231693267198153	-0.4823829488625292
0.0012376080306836003	0.36467697238824476	-0.4754521084159407	0.6353230276117552	0.4754521084159407	0.6353230276117552	0.4754521084159407	0.36467697238824476	-0.4754521084159407
0.0013140049539393335	0.33791005467360324	-0.4671019757832395	0.6620899453263966	0.4671019757832395	0.6620899453263966	0.4671019757832395	0.33791005467360324	-0.4671019757832395
0.0013951178209658248	0.3121532525434649	-0.4574634709177287	0.6878467474565352	0.4574634709177287	0.6878467474565352	0.4574634709177287	0.3121532525434649	-0.4574634709177287
0.0014812377446076926	0.28751966278459296	-0.4466808401579923	0.7124803372154069	0.4466808401579923	0.7124803372154069	0.4466808401579923	0.28751966278459296	-0.4466808401579923
0.0015726738079594985	0.2640974337753922	-0.43490677408481065	0.7359025662246079	0.43490677408481065	0.7359025662246079	0.43490677408481065	0.2640974337753922	-0.43490677408481065
0.0016697541736602763	0.24194985555296106	-0.422297690620489	0.7580501444470391	0.422297690620489	0.7580501444470391	0.422297690620489	0.24194985555296106	-0.422297690620489
0.0017728272616642413	0.22111637617892904	-0.4090094133273226	0.7788836238210709	0.4090094133273226	0.7788836238210709	0.4090094133273226	0.22111637617892904	-0.4090094133273226
0.0018822629997147003	0.2016143646729341	-0.3951934142556066	0.7983856353270659	0.3951934142556066	0.7983856353270659	0.3951934142556066	0.2016143646729341	-0.3951934142556066
0.0019984541510090904	0.18344141974058487	-0.38099372588461605	0.8165585802594151	0.38099372588461605	0.8165585802594151	0.38099372588461605	0.18344141974058487	-0.38099372588461605
0.0021218177238201135	0.16657802296981475	-0.3665445651650364	0.8334219770301853	0.3665445651650364	0.8334219770301853	0.3665445651650364	0.16657802296981475	-0.3665445651650364
0.002252796468132077	0.15099035087281953	-0.35196865983702	0.8490096491271804	0.35196865983702	0.8490096491271804	0.35196865983702	0.15099035087281953	-0.35196865983702
0.0023918604646638456	0.13663308698196558	-0.33737622619634006	0.8633669130180345	0.33737622619634006	0.8633669130180345	0.33737622619634006	0.13663308698196558	-0.33737622619634006
0.0025395088119813834	0.12345210807181238	-0.32286451933348387	0.8765478919281877	0.32286451933348387	0.8765478919281877	0.32286451933348387	0.12345210807181238	-0.32286451933348387
0.0026962714177549067	0.11138695306332472	-0.30851786094551775	0.8886130469366751	0.30851786094551775	0.8886130469366751	0.30851786094551775	0.11138695306332472	-0.30851786094551775
0.0028627109005894447	0.10037301588776283	-0.29440804439381185	0.8996269841122373	0.29440804439381185	0.8996269841122373	0.29440804439381185	0.10037301588776283	-0.29440804439381185
0.0030394246092544422	0.0903434322825354	-0.28059501946814536	0.9096565677174645	0.28059501946814536	0.9096565677174645	0.28059501946814536	0.0903434322825354	-0.28059501946814536
0.0032270467665594044	0.08123065392254784	-0.26712776790455683	0.9187693460774521	0.26712776790455683	0.9187693460774521	0.26712776790455683	0.08123065392254784	-0.26712776790455683
0.003426250745569887	0.07296772105850295	-0.25404529284302513	0.927032278941497	0.25404529284302513	0.927032278941497	0.25404529284302513	0.07296772105850295	-0.25404529284302513
0.003637751486333196	0.06548925715261143	-0.24137765919526027	0.9345107428473887	0.24137765919526027	0.9345107428473887	0.24137765919526027	0.06548925715261143	-0.24137765919526027
0.0038623080617873166	0.058732216488138304	-0.22914703583291807	0.9412677835118617	0.22914703583291807	0.9412677835118617	0.22914703583291807	0.058732216488138304	-0.22914703583291807
0.004100726402062135	0.05263641921911467	-0.21736870353676865	0.9473635807808855	0.21736870353676865	0.9473635807808855	0.21736870353676865	0.05263641921911467	-0.21736870353676865
0.004353862186950389	0.0471449087372996	-0.2060520040910955	0.9528550912627005	0.2060520040910955	0.9528550912627005	0.2060520040910955	0.0471449087372996	-0.2060520040910955
0.004622623916929439	0.042204164458577206	-0.19520121541894023	0.9577958355414229	0.19520121541894023	0.9577958355414229	0.19520121541894023	0.042204164458577206	-0.19520121541894023
0.004907976173755622	0.03776419997046323	-0.18481634514876918	0.9622358000295368	0.18481634514876918	0.9622358000295368	0.18481634514876918	0.03776419997046323	-0.18481634514876918
0.005210943082333509	0.033778572601120715	-0.17489384058860916	0.9662214273988792	0.17489384058860916	0.9662214273988792	0.17489384058860916	0.033778572601120715	-0.17489384058860916
0.005532611986284573	0.03020432637995608	-0.16542721698992346	0.9697956736200442	0.16542721698992346	0.9697956736200442	0.16542721698992346	0.03020432637995608	-0.16542721698992346
0.0058741373504068994	0.027001886420255927	-0.1564076085044679	0.9729981135797442	0.1564076085044679	0.9729981135797442	0.1564076085044679	0.027001886420255927	-0.1564076085044679
0.0062367449040317685	0.02413491918889403	-0.14782424768278699	0.975865080811106	0.14782424768278699	0.975865080811106	0.14782424768278699	0.02413491918889403	-0.14782424768278699
0.006621736040147555	0.02157017004859306	-0.1396648800232564	0.9784298299514069	0.1396648800232564	0.9784298299514069	0.1396648800232564	0.02157017004859306	-0.1396648800232564
0.00703049248607935	0.01927728689302887	-0.13191612020516402	0.980722713106971	0.13191612020516402	0.980722713106971	0.13191612020516402	0.01927728689302887	-0.13191612020516402
0.007464481262487288	0.01722863661726572	-0.12456375642709282	0.9827713633827342	0.12456375642709282	0.9827713633827342	0.12456375642709282	0.01722863661726572	-0.12456375642709282
0.00792525994848136	0.01539911951731911	-0.11759300887040128	0.9846008804826809	0.11759300887040128	0.9846008804826809	0.11759300887040128	0.01539911951731911	-0.11759300887040128
0.008414482271749119	0.013765985421996087	-0.11098874781873105	0.986234014578004	0.11098874781873105	0.986234014578004	0.11098874781873105	0.013765985421996087	-0.11098874781873105
0.008933904043759181	0.012308654356428264	-0.10473567645286004	0.9876913456435717	0.10473567645286004	0.9876913456435717	0.10473567645286004	0.012308654356428264	-0.10473567645286004
0.009485389461341805	0.011008543756178907	-0.09881848284280778	0.988991456243821	0.09881848284280778	0.988991456243821	0.09881848284280778	0.011008543756178907	-0.09881848284280778
0.010070917797263008	0.00984890364058281	-0.09322196519367698	0.9901510963594172	0.09322196519367698	0.9901510963594172	0.09322196519367698	0.00984890364058281	-0.09322196519367698
0.010692590503804267	0.008814660672659966	-0.08793113397402953	0.9911853393273399	0.08793113397402953	0.9911853393273399	0.08793113397402953	0.008814660672659966	-0.08793113397402953
0.011352638754842955	0.007892271649622635	-0.08293129416452388	0.9921077283503773	0.08293129416452388	0.9921077283503773	0.08293129416452388	0.007892271649622635	-0.08293129416452388
0.012053431453501117	0.007069586660595822	-0.07820811050581483	0.9929304133394042	0.07820811050581483	0.9929304133394042	0.07820811050581483	0.007069586660595822	-0.07820811050581483
0.01279748373410305	0.006335721901559116	-0.073747658293052	0.9936642780984409	0.073747658293052	0.9936642780984409	0.073747658293052	0.006335721901559116	-0.073747658293052
0.013587465988953749	0.005680941941830837	-0.06953646195508502	0.9943190580581691	0.06953646195508502	0.9943190580581691	0.06953646195508502	0.005680941941830837	-0.06953646195508502
0.014426213452336495	0.005096551085506656	-0.06556152336621743	0.9949034489144936	0.06556152336621743	0.9949034489144936	0.06556152336621743	0.005096551085506656	-0.06556152336621743
0.015316736376125392	0.004574793361465718	-0.061810341565495946	0.9954252066385342	0.061810341565495946	0.9954252066385342	0.061810341565495946	0.004574793361465718	-0.061810341565495946
0.016262230833533536	0.004108760604466891	-0.05827092530333407	0.9958912393955331	0.05827092530333407	0.9958912393955331	0.05827092530333407	0.004108760604466891	-0.05827092530333407
0.0172660901897711	0.003692308055304444	-0.05493179959992351	0.9963076919446956	0.05493179959992351	0.9963076919446956	0.05493179959992351	0.003692308055304444	-0.05493179959992351
0.018331917280781422	0.003319976907054463	-0.05178200728797654	0.9966800230929455	0.05178200728797654	0.9966800230929455	0.05178200728797654	0.003319976907054463	-0.05178200728797654
0.019463537343764315	0.002986923252693525	-0.0488111063282086	0.9970130767473064	0.0488111063282086	0.9970130767473064	0.0488111063282086	0.002986923252693525	-0.0488111063282086
0.020665011745894146	0.0026888529404614303	-0.046009163533739884	0.9973111470595386	0.046009163533739884	0.9973111470595386	0.046009163533739884	0.0026888529404614303	-0.046009163533739884
0.02194065256050484	0.0024219619090599157	-0.04336674522201408	0.9975780380909401	0.04336674522201408	0.9975780380909401	0.04336674522201408	0.0024219619090599157	-0.04336674522201408
0.023295038043055136	0.0021828816456756083	-0.040874905230301316	0.9978171183543242	0.040874905230301316	0.9978171183543242	0.040874905230301316	0.0021828816456756083	-0.040874905230301316
0.02473302906241829	0.001968629476282531	-0.038525170680712637	0.9980313705237176	0.038525170680712637	0.9980313705237176	0.038525170680712637	0.001968629476282531	-0.038525170680712637
0.026259786546465668	0.0017765634513318654	-0.03630952585715982	0.9982234365486682	0.03630952585715982	0.9982234365486682	0.03630952585715982	0.0017765634513318654	-0.03630952585715982
0.027880790004559123	0.0016043416249171322	-0.0342203945515963	0.9983956583750828	0.0342203945515963	0.9983956583750828	0.0342203945515963	0.0016043416249171322	-0.0342203945515963
0.029601857193425795	0.00144988553939644	-0.03225062124068581	0.9985501144606036	0.03225062124068581	0.9985501144606036	0.03225062124068581	0.00144988553939644	-0.03225062124068581
0.031429164996999326	0.0013113477215249691	-0.0303934514574763	0.9986886522784749	0.0303934514574763	0.9986886522784749	0.0303934514574763	0.0013113477215249691	-0.0303934514574763
0.03336927159516126	0.0011870829748662826	-0.028642511718226942	0.9988129170251338	0.028642511718226942	0.9988129170251338	0.028642511718226942	0.0011870829748662826	-0.028642511718226942
0.035429140000949814	0.0010756232231645265	-0.026991789347492395	0.9989243767768354	0.026991789347492395	0.9989243767768354	0.026991789347492395	0.0010756232231645265	-0.026991789347492395
0.03761616305070665	0.0009756556277123787	-0.025435612513465815	0.9990243443722877	0.025435612513465815	0.9990243443722877	0.025435612513465815	0.0009756556277123787	-0.025435612513465815
0.039938189936854634	0.0008860036750824225	-0.02396863074189573	0.9991139963249174	0.02396863074189573	0.9991139963249174	0.02396863074189573	0.0008860036750824225	-0.02396863074189573
0.04240355437852965	0.0008056109147175057	-0.022585796124366894	0.9991943890852826	0.022585796124366894	0.9991943890852826	0.022585796124366894	0.0008056109147175057	-0.022585796124366894
0.04502110453117167	0.000733527021355606	-0.02128234538020951	0.9992664729786443	0.02128234538020951	0.9992664729786443	0.02128234538020951	0.000733527021355606	-0.02128234538020951
0.047800234742419935	0.0006688958654033229	-0.0200537828757449	0.9993311041345966	0.0200537828757449	0.9993311041345966	0.0200537828757449	0.0006688958654033229	-0.0200537828757449
